f_Hz,omega_rad_s,Z_real_Ohm,Z_imag_Ohm,Z_mag_Ohm,Z_phase_deg
1.000000e-02,6.283185e-02,1.174348e+03,-1.108219e+03,1.614696e+03,-43.3405
1.263134e-02,7.936502e-02,1.052185e+03,-9.860515e+02,1.442010e+03,-43.1416
1.595506e-02,1.002486e-01,9.434894e+02,-8.773514e+02,1.288378e+03,-42.9198
2.015338e-02,1.266274e-01,8.467761e+02,-7.806340e+02,1.151703e+03,-42.6726
2.545641e-02,1.599473e-01,7.607243e+02,-6.945785e+02,1.030117e+03,-42.3976
3.215484e-02,2.020348e-01,6.841588e+02,-6.180094e+02,9.219593e+02,-42.0919
4.061586e-02,2.551970e-01,6.160338e+02,-5.498812e+02,8.257524e+02,-41.7526
5.130326e-02,3.223479e-01,5.554189e+02,-4.892633e+02,7.401816e+02,-41.3765
6.480286e-02,4.071684e-01,5.014862e+02,-4.353279e+02,6.640774e+02,-40.9604
8.185467e-02,5.143081e-01,4.534990e+02,-3.873383e+02,5.963995e+02,-40.5010
1.033934e-01,6.496398e-01,4.108019e+02,-3.446391e+02,5.362223e+02,-39.9947
1.305997e-01,8.205818e-01,3.728117e+02,-3.066472e+02,4.827226e+02,-39.4382
1.649648e-01,1.036504e+00,3.390095e+02,-2.728436e+02,4.351679e+02,-38.8280
2.083726e-01,1.309244e+00,3.089336e+02,-2.427668e+02,3.929067e+02,-38.1610
2.632024e-01,1.653749e+00,2.821731e+02,-2.160059e+02,3.553592e+02,-37.4344
3.324598e-01,2.088906e+00,2.583626e+02,-1.921954e+02,3.220098e+02,-36.6455
4.199411e-01,2.638568e+00,2.371768e+02,-1.710101e+02,2.923992e+02,-35.7925
5.304417e-01,3.332864e+00,2.183262e+02,-1.521608e+02,2.661189e+02,-34.8743
6.700188e-01,4.209852e+00,2.015535e+02,-1.353899e+02,2.428050e+02,-33.8905
8.463232e-01,5.317605e+00,1.866295e+02,-1.204685e+02,2.221333e+02,-32.8421
1.069019e+00,6.716846e+00,1.733503e+02,-1.071926e+02,2.038151e+02,-31.7309
1.350314e+00,8.484273e+00,1.615345e+02,-9.538108e+01,1.875925e+02,-30.5605
1.705627e+00,1.071677e+01,1.510207e+02,-8.487254e+01,1.732357e+02,-29.3357
2.154435e+00,1.353671e+01,1.416653e+02,-7.552348e+01,1.605392e+02,-28.0626
2.721339e+00,1.709868e+01,1.333404e+02,-6.720623e+01,1.493196e+02,-26.7490
3.437414e+00,2.159791e+01,1.259324e+02,-5.980722e+01,1.394126e+02,-25.4038
4.341913e+00,2.728105e+01,1.193400e+02,-5.322540e+01,1.306712e+02,-24.0368
5.484417e+00,3.445961e+01,1.134731e+02,-4.737094e+01,1.229640e+02,-22.6588
6.927551e+00,4.352708e+01,1.082516e+02,-4.216391e+01,1.161732e+02,-21.2809
8.750422e+00,5.498052e+01,1.036042e+02,-3.753326e+01,1.101934e+02,-19.9142
1.105295e+01,6.944774e+01,9.946737e+01,-3.341583e+01,1.049303e+02,-18.5697
1.396135e+01,8.772177e+01,9.578453e+01,-2.975549e+01,1.002999e+02,-17.2574
1.763505e+01,1.108043e+02,9.250537e+01,-2.650237e+01,9.622691e+01,-15.9868
2.227543e+01,1.399607e+02,8.958508e+01,-2.361222e+01,9.264461e+01,-14.7658
2.813684e+01,1.767890e+02,8.698374e+01,-2.104577e+01,8.949355e+01,-13.6014
3.554059e+01,2.233081e+02,8.466577e+01,-1.876824e+01,8.672104e+01,-12.4989
4.489251e+01,2.820680e+02,8.259944e+01,-1.674887e+01,8.428043e+01,-11.4626
5.670524e+01,3.562895e+02,8.075645e+01,-1.496050e+01,8.213051e+01,-10.4953
7.162629e+01,4.500413e+02,7.911153e+01,-1.337922e+01,8.023490e+01,-9.5989
9.047357e+01,5.684622e+02,7.764206e+01,-1.198410e+01,7.856150e+01,-8.7744
1.142802e+02,7.180437e+02,7.632777e+01,-1.075688e+01,7.708202e+01,-8.0219
1.443512e+02,9.069851e+02,7.515040e+01,-9.681776e+00,7.577149e+01,-7.3411
1.823348e+02,1.145643e+03,7.409347e+01,-8.745318e+00,7.460780e+01,-6.7315
2.303132e+02,1.447101e+03,7.314197e+01,-7.936168e+00,7.357126e+01,-6.1926
2.909163e+02,1.827881e+03,7.228206e+01,-7.245023e+00,7.264425e+01,-5.7238
3.674662e+02,2.308858e+03,7.150083e+01,-6.664515e+00,7.181076e+01,-5.3251
4.641589e+02,2.916396e+03,7.078594e+01,-6.189135e+00,7.105600e+01,-4.9969
5.862947e+02,3.683798e+03,7.012524e+01,-5.815144e+00,7.036593e+01,-4.7404
7.405685e+02,4.653129e+03,6.950632e+01,-5.540452e+00,6.972679e+01,-4.5575
9.354369e+02,5.877523e+03,6.891598e+01,-5.364417e+00,6.912445e+01,-4.4509
1.181582e+03,7.424097e+03,6.833950e+01,-5.287470e+00,6.854374e+01,-4.4242
1.492496e+03,9.377626e+03,6.775986e+01,-5.310455e+00,6.796764e+01,-4.4812
1.885221e+03,1.184519e+04,6.715686e+01,-5.433489e+00,6.737630e+01,-4.6256
2.381286e+03,1.496206e+04,6.650635e+01,-5.654104e+00,6.674626e+01,-4.8594
3.007883e+03,1.889908e+04,6.578005e+01,-5.964444e+00,6.604990e+01,-5.1810
3.799357e+03,2.387207e+04,6.494658e+01,-6.347453e+00,6.525602e+01,-5.5820
4.799096e+03,3.015361e+04,6.397497e+01,-6.772552e+00,6.433245e+01,-6.0430
6.061899e+03,3.808803e+04,6.284166e+01,-7.192379e+00,6.325191e+01,-6.5292
7.656988e+03,4.811028e+04,6.154092e+01,-7.543575e+00,6.200153e+01,-6.9884
9.671799e+03,6.076970e+04,6.009608e+01,-7.755093e+00,6.059439e+01,-7.3531
1.221677e+04,7.676025e+04,5.856511e+01,-7.765031e+00,5.907764e+01,-7.5527
1.543142e+04,9.695845e+04,5.703369e+01,-7.540853e+00,5.753005e+01,-7.5318
1.949194e+04,1.224715e+05,5.559500e+01,-7.092296e+00,5.604556e+01,-7.2700
2.462092e+04,1.546978e+05,5.432482e+01,-6.468287e+00,5.470854e+01,-6.7901
3.109952e+04,1.954040e+05,5.326505e+01,-5.739472e+00,5.357338e+01,-6.1501
3.928284e+04,2.468214e+05,5.242205e+01,-4.976906e+00,5.265777e+01,-5.4234
4.961948e+04,3.117684e+05,5.177616e+01,-4.237084e+00,5.194924e+01,-4.6784
6.267603e+04,3.938051e+05,5.129472e+01,-3.556603e+00,5.141787e+01,-3.9663
7.916819e+04,4.974284e+05,5.094246e+01,-2.953951e+00,5.102803e+01,-3.3186
1.000000e+05,6.283185e+05,5.068758e+01,-2.434354e+00,5.074600e+01,-2.7496
