f_Hz,omega_rad_s,Z_real_Ohm,Z_imag_Ohm,Z_mag_Ohm,Z_phase_deg
1.000000e-02,6.283185e-02,3.146555e+04,-3.150720e+04,4.452847e+04,-45.0379
1.263134e-02,7.936502e-02,2.799361e+04,-2.803090e+04,3.961532e+04,-45.0381
1.595506e-02,1.002486e-01,2.490486e+04,-2.493788e+04,3.524415e+04,-45.0380
2.015338e-02,1.266274e-01,2.215705e+04,-2.218589e+04,3.135520e+04,-45.0373
2.545641e-02,1.599473e-01,1.971258e+04,-1.973734e+04,2.789531e+04,-45.0360
3.215484e-02,2.020348e-01,1.753800e+04,-1.755877e+04,2.481716e+04,-45.0339
4.061586e-02,2.551970e-01,1.560355e+04,-1.562042e+04,2.207869e+04,-45.0310
5.130326e-02,3.223479e-01,1.388275e+04,-1.389583e+04,1.964242e+04,-45.0270
6.480286e-02,4.071684e-01,1.235204e+04,-1.236141e+04,1.747505e+04,-45.0217
8.185467e-02,5.143081e-01,1.099045e+04,-1.099622e+04,1.554693e+04,-45.0150
1.033934e-01,6.496398e-01,9.779337e+03,-9.781598e+03,1.383167e+04,-45.0066
1.305997e-01,8.205818e-01,8.702093e+03,-8.700947e+03,1.230581e+04,-44.9962
1.649648e-01,1.036504e+00,7.743952e+03,-7.739503e+03,1.094846e+04,-44.9835
2.083726e-01,1.309244e+00,6.891774e+03,-6.884128e+03,9.741035e+03,-44.9682
2.632024e-01,1.653749e+00,6.133865e+03,-6.123131e+03,8.667009e+03,-44.9498
3.324598e-01,2.088906e+00,5.459822e+03,-5.446114e+03,7.711668e+03,-44.9280
4.199411e-01,2.638568e+00,4.860388e+03,-4.843823e+03,6.861923e+03,-44.9022
5.304417e-01,3.332864e+00,4.327324e+03,-4.308023e+03,6.106128e+03,-44.8719
6.700188e-01,4.209852e+00,3.853299e+03,-3.831392e+03,5.433919e+03,-44.8367
8.463232e-01,5.317605e+00,3.431792e+03,-3.407411e+03,4.836077e+03,-44.7957
1.069019e+00,6.716846e+00,3.056997e+03,-3.030283e+03,4.304398e+03,-44.7486
1.350314e+00,8.484273e+00,2.723748e+03,-2.694849e+03,3.831581e+03,-44.6944
1.705627e+00,1.071677e+01,2.427448e+03,-2.396520e+03,3.411130e+03,-44.6327
2.154435e+00,1.353671e+01,2.164005e+03,-2.131213e+03,3.037266e+03,-44.5626
2.721339e+00,1.709868e+01,1.929778e+03,-1.895296e+03,2.704846e+03,-44.4835
3.437414e+00,2.159791e+01,1.721524e+03,-1.685538e+03,2.409291e+03,-44.3948
4.341913e+00,2.728105e+01,1.536358e+03,-1.499063e+03,2.146529e+03,-44.2961
5.484417e+00,3.445961e+01,1.371710e+03,-1.333315e+03,1.912934e+03,-44.1868
6.927551e+00,4.352708e+01,1.225291e+03,-1.186018e+03,1.705280e+03,-44.0669
8.750422e+00,5.498052e+01,1.095065e+03,-1.055147e+03,1.520691e+03,-43.9365
1.105295e+01,6.944774e+01,9.792147e+02,-9.389004e+02,1.356612e+03,-43.7960
1.396135e+01,8.772177e+01,8.761235e+02,-8.356740e+02,1.210762e+03,-43.6464
1.763505e+01,1.108043e+02,7.843494e+02,-7.440399e+02,1.081110e+03,-43.4892
2.227543e+01,1.399607e+02,7.026072e+02,-6.627256e+02,9.658479e+02,-43.3269
2.813684e+01,1.767890e+02,6.297506e+02,-5.905963e+02,8.633596e+02,-43.1623
3.554059e+01,2.233081e+02,5.647572e+02,-5.266389e+02,7.722041e+02,-42.9997
4.489251e+01,2.820680e+02,5.067150e+02,-4.699472e+02,6.910937e+02,-42.8440
5.670524e+01,3.562895e+02,4.548106e+02,-4.197090e+02,6.188766e+02,-42.7015
7.162629e+01,4.500413e+02,4.083195e+02,-3.751934e+02,5.545222e+02,-42.5790
9.047357e+01,5.684622e+02,3.665972e+02,-3.357405e+02,4.971068e+02,-42.4844
1.142802e+02,7.180437e+02,3.290729e+02,-3.007514e+02,4.458031e+02,-42.4253
1.443512e+02,9.069851e+02,2.952444e+02,-2.696791e+02,3.998700e+02,-42.4089
1.823348e+02,1.145643e+03,2.646743e+02,-2.420221e+02,3.586463e+02,-42.4403
2.303132e+02,1.447101e+03,2.369889e+02,-2.173185e+02,3.215447e+02,-42.5208
2.909163e+02,1.827881e+03,2.118772e+02,-1.951435e+02,2.880502e+02,-42.6457
3.674662e+02,2.308858e+03,1.890911e+02,-1.751101e+02,2.577188e+02,-42.8016
4.641589e+02,2.916396e+03,1.684445e+02,-1.568726e+02,2.301794e+02,-42.9628
5.862947e+02,3.683798e+03,1.498090e+02,-1.401344e+02,2.051351e+02,-43.0889
7.405685e+02,4.653129e+03,1.331060e+02,-1.246571e+02,1.823639e+02,-43.1226
9.354369e+02,5.877523e+03,1.182910e+02,-1.102687e+02,1.617156e+02,-42.9898
1.181582e+03,7.424097e+03,1.053339e+02,-9.686689e+01,1.431028e+02,-42.6022
1.492496e+03,9.377626e+03,9.419492e+01,-8.441375e+01,1.264846e+02,-41.8654
1.885221e+03,1.184519e+04,8.480520e+01,-7.292043e+01,1.118450e+02,-40.6909
2.381286e+03,1.496206e+04,7.705415e+01,-6.242461e+01,9.916740e+01,-39.0123
3.007883e+03,1.889908e+04,7.078915e+01,-5.296586e+01,8.841089e+01,-36.8046
3.799357e+03,2.387207e+04,6.582552e+01,-4.456530e+01,7.949254e+01,-34.0988
4.799096e+03,3.015361e+04,6.196285e+01,-3.721378e+01,7.227905e+01,-30.9883
6.061899e+03,3.808803e+04,5.900225e+01,-3.086954e+01,6.658975e+01,-27.6182
7.656988e+03,4.811028e+04,5.676021e+01,-2.546298e+01,6.221000e+01,-24.1613
9.671799e+03,6.076970e+04,5.507712e+01,-2.090542e+01,5.891117e+01,-20.7851
1.221677e+04,7.676025e+04,5.382069e+01,-1.709852e+01,5.647146e+01,-17.6247
1.543142e+04,9.695845e+04,5.288526e+01,-1.394238e+01,5.469224e+01,-14.7691
1.949194e+04,1.224715e+05,5.218889e+01,-1.134150e+01,5.340703e+01,-12.2607
2.462092e+04,1.546978e+05,5.166944e+01,-9.208416e+00,5.248358e+01,-10.1050
3.109952e+04,1.954040e+05,5.128052e+01,-7.465541e+00,5.182110e+01,-8.2831
3.928284e+04,2.468214e+05,5.098787e+01,-6.045645e+00,5.134504e+01,-6.7620
4.961948e+04,3.117684e+05,5.076639e+01,-4.891489e+00,5.100150e+01,-5.5036
6.267603e+04,3.938051e+05,5.059771e+01,-3.954974e+00,5.075205e+01,-4.4694
7.916819e+04,4.974284e+05,5.046843e+01,-3.196078e+00,5.056953e+01,-3.6236
1.000000e+05,6.283185e+05,5.036871e+01,-2.581751e+00,5.043484e+01,-2.9342
