f_Hz,omega_rad_s,Z_real_Ohm,Z_imag_Ohm,Z_mag_Ohm,Z_phase_deg
1.000000e-02,6.283185e-02,2.801643e+03,-1.108334e+03,3.012907e+03,-21.5838
1.263134e-02,7.936502e-02,2.679468e+03,-9.861789e+02,2.855188e+03,-20.2062
1.595506e-02,1.002486e-01,2.570759e+03,-8.774936e+02,2.716394e+03,-18.8466
2.015338e-02,1.266274e-01,2.474032e+03,-7.807941e+02,2.594316e+03,-17.5155
2.545641e-02,1.599473e-01,2.387966e+03,-6.947603e+02,2.486981e+03,-16.2219
3.215484e-02,2.020348e-01,2.311385e+03,-6.182177e+02,2.392633e+03,-14.9742
4.061586e-02,2.551970e-01,2.243243e+03,-5.501216e+02,2.309713e+03,-13.7790
5.130326e-02,3.223479e-01,2.182609e+03,-4.895427e+02,2.236836e+03,-12.6418
6.480286e-02,4.071684e-01,2.128656e+03,-4.356548e+02,2.172780e+03,-11.5665
8.185467e-02,5.143081e-01,2.080646e+03,-3.877232e+02,2.116464e+03,-10.5558
1.033934e-01,6.496398e-01,2.037924e+03,-3.450948e+02,2.066936e+03,-9.6111
1.305997e-01,8.205818e-01,1.999905e+03,-3.071895e+02,2.023360e+03,-8.7325
1.649648e-01,1.036504e+00,1.966071e+03,-2.734920e+02,1.985002e+03,-7.9194
2.083726e-01,1.309244e+00,1.935959e+03,-2.435452e+02,1.951218e+03,-7.1702
2.632024e-01,1.653749e+00,1.909157e+03,-2.169438e+02,1.921443e+03,-6.4829
3.324598e-01,2.088906e+00,1.885298e+03,-1.933291e+02,1.895185e+03,-5.8550
4.199411e-01,2.638568e+00,1.864056e+03,-1.723847e+02,1.872010e+03,-5.2836
5.304417e-01,3.332864e+00,1.845141e+03,-1.538315e+02,1.851542e+03,-4.7658
6.700188e-01,4.209852e+00,1.828292e+03,-1.374252e+02,1.833450e+03,-4.2986
8.463232e-01,5.317605e+00,1.813278e+03,-1.229528e+02,1.817442e+03,-3.8791
1.069019e+00,6.716846e+00,1.799893e+03,-1.102305e+02,1.803265e+03,-3.5046
1.350314e+00,8.484273e+00,1.787951e+03,-9.910157e+01,1.790695e+03,-3.1725
1.705627e+00,1.071677e+01,1.777285e+03,-8.943524e+01,1.779534e+03,-2.8808
2.154435e+00,1.353671e+01,1.767747e+03,-8.112572e+01,1.769608e+03,-2.6276
2.721339e+00,1.709868e+01,1.759202e+03,-7.409200e+01,1.760761e+03,-2.4117
3.437414e+00,2.159791e+01,1.751525e+03,-6.827821e+01,1.752855e+03,-2.2324
4.341913e+00,2.728105e+01,1.744604e+03,-6.365469e+01,1.745765e+03,-2.0896
5.484417e+00,3.445961e+01,1.738333e+03,-6.021972e+01,1.739376e+03,-1.9841
6.927551e+00,4.352708e+01,1.732611e+03,-5.800228e+01,1.733581e+03,-1.9174
8.750422e+00,5.498052e+01,1.727339e+03,-5.706564e+01,1.728282e+03,-1.8922
1.105295e+01,6.944774e+01,1.722418e+03,-5.751217e+01,1.723378e+03,-1.9124
1.396135e+01,8.772177e+01,1.717742e+03,-5.948943e+01,1.718772e+03,-1.9835
1.763505e+01,1.108043e+02,1.713195e+03,-6.319764e+01,1.714360e+03,-2.1126
2.227543e+01,1.399607e+02,1.708638e+03,-6.889869e+01,1.710027e+03,-2.3091
2.813684e+01,1.767890e+02,1.703905e+03,-7.692652e+01,1.705641e+03,-2.5850
3.554059e+01,2.233081e+02,1.698780e+03,-8.769864e+01,1.701042e+03,-2.9552
4.489251e+01,2.820680e+02,1.692978e+03,-1.017278e+02,1.696031e+03,-3.4387
5.670524e+01,3.562895e+02,1.686107e+03,-1.196317e+02,1.690346e+03,-4.0584
7.162629e+01,4.500413e+02,1.677627e+03,-1.421376e+02,1.683638e+03,-4.8428
9.047357e+01,5.684622e+02,1.666781e+03,-1.700738e+02,1.675435e+03,-5.8261
1.142802e+02,7.180437e+02,1.652505e+03,-2.043365e+02,1.665091e+03,-7.0490
1.443512e+02,9.069851e+02,1.633322e+03,-2.458122e+02,1.651715e+03,-8.5587
1.823348e+02,1.145643e+03,1.607211e+03,-2.952254e+02,1.634101e+03,-10.4085
2.303132e+02,1.447101e+03,1.571506e+03,-3.528709e+02,1.610637e+03,-12.6555
2.909163e+02,1.827881e+03,1.522873e+03,-4.181953e+02,1.579249e+03,-15.3554
3.674662e+02,2.308858e+03,1.457515e+03,-4.892262e+02,1.537431e+03,-18.5547
4.641589e+02,2.916396e+03,1.371790e+03,-5.619610e+02,1.482433e+03,-22.2767
5.862947e+02,3.683798e+03,1.263370e+03,-6.300288e+02,1.411751e+03,-26.5049
7.405685e+02,4.653129e+03,1.132828e+03,-6.851431e+02,1.323903e+03,-31.1659
9.354369e+02,5.877523e+03,9.849869e+02,-7.187841e+02,1.219364e+03,-36.1197
1.181582e+03,7.424097e+03,8.289539e+02,-7.248658e+02,1.101179e+03,-41.1676
1.492496e+03,9.377626e+03,6.761660e+02,-7.021203e+02,9.747683e+02,-46.0788
1.885221e+03,1.184519e+04,5.371549e+02,-6.546428e+02,8.468132e+02,-50.6301
2.381286e+03,1.496206e+04,4.188208e+02,-5.902010e+02,7.237044e+02,-54.6396
3.007883e+03,1.889908e+04,3.235626e+02,-5.174864e+02,6.103154e+02,-57.9840
3.799357e+03,2.387207e+04,2.501588e+02,-4.438781e+02,5.095166e+02,-60.5955
4.799096e+03,3.015361e+04,1.953694e+02,-3.744503e+02,4.223532e+02,-62.4467
6.061899e+03,3.808803e+04,1.553425e+02,-3.120188e+02,3.485499e+02,-63.5330
7.656988e+03,4.811028e+04,1.264765e+02,-2.576843e+02,2.870497e+02,-63.8573
9.671799e+03,6.076970e+04,1.057885e+02,-2.114492e+02,2.364359e+02,-63.4211
1.221677e+04,7.676025e+04,9.097779e+01,-1.727134e+02,1.952099e+02,-62.2217
1.543142e+04,9.695845e+04,8.034564e+01,-1.406093e+02,1.619457e+02,-60.2559
1.949194e+04,1.224715e+05,7.267080e+01,-1.142014e+02,1.353625e+02,-57.5298
2.462092e+04,1.546978e+05,6.708913e+01,-9.259376e+01,1.143440e+02,-54.0747
3.109952e+04,1.954040e+05,6.299424e+01,-7.498024e+01,9.793013e+01,-49.9649
3.928284e+04,2.468214e+05,5.996178e+01,-6.066107e+01,8.529467e+01,-45.3322
4.961948e+04,3.117684e+05,5.769452e+01,-4.904269e+01,7.572214e+01,-40.3659
6.267603e+04,3.938051e+05,5.598338e+01,-3.962908e+01,6.859010e+01,-35.2936
7.916819e+04,4.974284e+05,5.468039e+01,-3.200984e+01,6.336067e+01,-30.3447
1.000000e+05,6.283185e+05,5.367999e+01,-2.584776e+01,5.957892e+01,-25.7115
