f_Hz,omega_rad_s,Z_real_Ohm,Z_imag_Ohm,Z_mag_Ohm,Z_phase_deg
1.000000e-02,6.283185e-02,1.322210e+03,-1.108262e+03,1.725249e+03,-39.9694
1.263134e-02,7.936502e-02,1.200042e+03,-9.860996e+02,1.553220e+03,-39.4107
1.595506e-02,1.002486e-01,1.091340e+03,-8.774050e+02,1.400308e+03,-38.7982
2.015338e-02,1.266274e-01,9.946202e+02,-7.806939e+02,1.264418e+03,-38.1290
2.545641e-02,1.599473e-01,9.085612e+02,-6.946455e+02,1.143685e+03,-37.3999
3.215484e-02,2.020348e-01,8.319876e+02,-6.180846e+02,1.036452e+03,-36.6087
4.061586e-02,2.551970e-01,7.638538e+02,-5.499655e+02,9.412411e+02,-35.7534
5.130326e-02,3.223479e-01,7.032291e+02,-4.893582e+02,8.567395e+02,-34.8330
6.480286e-02,4.071684e-01,6.492854e+02,-4.354348e+02,7.817768e+02,-33.8473
8.185467e-02,5.143081e-01,6.012861e+02,-3.874590e+02,7.153107e+02,-32.7971
1.033934e-01,6.496398e-01,5.585756e+02,-3.447757e+02,6.564122e+02,-31.6846
1.305997e-01,8.205818e-01,5.205704e+02,-3.068021e+02,6.042525e+02,-30.5133
1.649648e-01,1.036504e+00,4.867516e+02,-2.730198e+02,5.580922e+02,-29.2881
2.083726e-01,1.309244e+00,4.566572e+02,-2.429677e+02,5.172708e+02,-28.0155
2.632024e-01,1.653749e+00,4.298761e+02,-2.162357e+02,4.811978e+02,-26.7033
3.324598e-01,2.088906e+00,4.060426e+02,-1.924590e+02,4.493451e+02,-25.3604
4.199411e-01,2.638568e+00,3.848311e+02,-1.713135e+02,4.212401e+02,-23.9970
5.304417e-01,3.332864e+00,3.659518e+02,-1.525109e+02,3.964597e+02,-22.6240
6.700188e-01,4.209852e+00,3.491469e+02,-1.357954e+02,3.746250e+02,-21.2528
8.463232e-01,5.317605e+00,3.341867e+02,-1.209396e+02,3.553971e+02,-19.8948
1.069019e+00,6.716846e+00,3.208668e+02,-1.077418e+02,3.384727e+02,-18.5612
1.350314e+00,8.484273e+00,3.090051e+02,-9.602342e+01,3.235809e+02,-17.2626
1.705627e+00,1.071677e+01,2.984394e+02,-8.562637e+01,3.104801e+02,-16.0089
2.154435e+00,1.353671e+01,2.890250e+02,-7.641107e+01,2.989551e+02,-14.8088
2.721339e+00,1.709868e+01,2.806331e+02,-6.825471e+01,2.888142e+02,-13.6699
3.437414e+00,2.159791e+01,2.731485e+02,-6.104966e+01,2.798878e+02,-12.5987
4.341913e+00,2.728105e+01,2.664682e+02,-5.470218e+01,2.720250e+02,-11.6009
5.484417e+00,3.445961e+01,2.604999e+02,-4.913138e+01,2.650926e+02,-10.6808
6.927551e+00,4.352708e+01,2.551608e+02,-4.426831e+01,2.589724e+02,-9.8424
8.750422e+00,5.498052e+01,2.503760e+02,-4.005537e+01,2.535598e+02,-9.0892
1.105295e+01,6.944774e+01,2.460774e+02,-3.644586e+01,2.487617e+02,-8.4247
1.396135e+01,8.772177e+01,2.422027e+02,-3.340378e+01,2.444953e+02,-7.8525
1.763505e+01,1.108043e+02,2.386936e+02,-3.090381e+01,2.406859e+02,-7.3771
2.227543e+01,1.399607e+02,2.354948e+02,-2.893152e+01,2.372653e+02,-7.0039
2.813684e+01,1.767890e+02,2.325520e+02,-2.748375e+01,2.341704e+02,-6.7401
3.554059e+01,2.233081e+02,2.298098e+02,-2.656909e+01,2.313405e+02,-6.5949
4.489251e+01,2.820680e+02,2.272091e+02,-2.620844e+01,2.287156e+02,-6.5800
5.670524e+01,3.562895e+02,2.246833e+02,-2.643524e+01,2.262331e+02,-6.7103
7.162629e+01,4.500413e+02,2.221535e+02,-2.729523e+01,2.238241e+02,-7.0046
9.047357e+01,5.684622e+02,2.195218e+02,-2.884479e+01,2.214088e+02,-7.4857
1.142802e+02,7.180437e+02,2.166629e+02,-3.114682e+01,2.188903e+02,-8.1806
1.443512e+02,9.069851e+02,2.134139e+02,-3.426218e+01,2.161466e+02,-9.1206
1.823348e+02,1.145643e+03,2.095629e+02,-3.823398e+01,2.130222e+02,-10.3397
2.303132e+02,1.447101e+03,2.048413e+02,-4.306121e+01,2.093185e+02,-11.8717
2.909163e+02,1.827881e+03,1.989240e+02,-4.865886e+01,2.047888e+02,-13.7452
3.674662e+02,2.308858e+03,1.914532e+02,-5.480567e+01,1.991432e+02,-15.9744
4.641589e+02,2.916396e+03,1.820992e+02,-6.109122e+01,1.920735e+02,-18.5457
5.862947e+02,3.683798e+03,1.706701e+02,-6.689184e+01,1.833107e+02,-21.4020
7.405685e+02,4.653129e+03,1.572557e+02,-7.142177e+01,1.727149e+02,-24.4264
9.354369e+02,5.877523e+03,1.423414e+02,-7.389441e+01,1.603791e+02,-27.4354
1.181582e+03,7.424097e+03,1.267997e+02,-7.376628e+01,1.466957e+02,-30.1889
1.492496e+03,9.377626e+03,1.117027e+02,-7.094742e+01,1.323293e+02,-32.4215
1.885221e+03,1.184519e+04,9.802594e+01,-6.584222e+01,1.180859e+02,-33.8885
2.381286e+03,1.496206e+04,8.640143e+01,-5.918986e+01,1.047313e+02,-34.4133
3.007883e+03,1.889908e+04,7.704099e+01,-5.181100e+01,9.284231e+01,-33.9213
3.799357e+03,2.387207e+04,6.981817e+01,-4.440166e+01,8.274107e+01,-32.4548
4.799096e+03,3.015361e+04,6.441683e+01,-3.744059e+01,7.450722e+01,-30.1662
6.061899e+03,3.808803e+04,6.046284e+01,-3.119279e+01,6.803488e+01,-27.2892
7.656988e+03,4.811028e+04,5.760578e+01,-2.575989e+01,6.310308e+01,-24.0930
9.671799e+03,6.076970e+04,5.555452e+01,-2.113837e+01,5.944018e+01,-20.8317
1.221677e+04,7.676025e+04,5.408372e+01,-1.726678e+01,5.677315e+01,-17.7062
1.543142e+04,9.695845e+04,5.302646e+01,-1.405793e+01,5.485828e+01,-14.8482
1.949194e+04,1.224715e+05,5.226241e+01,-1.141823e+01,5.349519e+01,-12.3243
2.462092e+04,1.546978e+05,5.170623e+01,-9.258189e+00,5.252854e+01,-10.1514
3.109952e+04,1.954040e+05,5.129788e+01,-7.497299e+00,5.184286e+01,-8.3150
3.928284e+04,2.468214e+05,5.099529e+01,-6.065670e+00,5.135476e+01,-6.7832
4.961948e+04,3.117684e+05,5.076894e+01,-4.904008e+00,5.100524e+01,-5.5173
6.267603e+04,3.938051e+05,5.059804e+01,-3.962753e+00,5.075298e+01,-4.4782
7.916819e+04,4.974284e+05,5.046787e+01,-3.200892e+00,5.056927e+01,-3.6291
1.000000e+05,6.283185e+05,5.036790e+01,-2.584722e+00,5.043418e+01,-2.9377
