f_Hz,omega_rad_s,Z_real_Ohm,Z_imag_Ohm,Z_mag_Ohm,Z_phase_deg
1.000000e-02,6.283185e-02,1.061944e+03,-9.974005e+02,1.456892e+03,-43.2048
1.263134e-02,7.936502e-02,9.519972e+02,-8.874497e+02,1.301486e+03,-42.9903
1.595506e-02,1.002486e-01,8.541704e+02,-7.896195e+02,1.163231e+03,-42.7512
2.015338e-02,1.266274e-01,7.671279e+02,-7.025737e+02,1.040238e+03,-42.4850
2.545641e-02,1.599473e-01,6.896808e+02,-6.251236e+02,9.308272e+02,-42.1890
3.215484e-02,2.020348e-01,6.207714e+02,-5.562114e+02,8.335036e+02,-41.8603
4.061586e-02,2.551970e-01,5.594586e+02,-4.948958e+02,7.469376e+02,-41.4959
5.130326e-02,3.223479e-01,5.049048e+02,-4.403396e+02,6.699461e+02,-41.0925
6.480286e-02,4.071684e-01,4.563649e+02,-3.917975e+02,6.014767e+02,-40.6467
8.185467e-02,5.143081e-01,4.131761e+02,-3.486067e+02,5.405933e+02,-40.1551
1.033934e-01,6.496398e-01,3.747483e+02,-3.101773e+02,4.864630e+02,-39.6144
1.305997e-01,8.205818e-01,3.405568e+02,-2.759844e+02,4.383450e+02,-39.0210
1.649648e-01,1.036504e+00,3.101345e+02,-2.455610e+02,3.955801e+02,-38.3718
2.083726e-01,1.309244e+00,2.830659e+02,-2.184917e+02,3.575820e+02,-37.6637
2.632024e-01,1.653749e+00,2.589812e+02,-1.944066e+02,3.238290e+02,-36.8941
3.324598e-01,2.088906e+00,2.375515e+02,-1.729770e+02,2.938567e+02,-36.0608
4.199411e-01,2.638568e+00,2.184841e+02,-1.539100e+02,2.672519e+02,-35.1626
5.304417e-01,3.332864e+00,2.015184e+02,-1.369453e+02,2.436467e+02,-34.1987
6.700188e-01,4.209852e+00,1.864229e+02,-1.218512e+02,2.227133e+02,-33.1698
8.463232e-01,5.317605e+00,1.729911e+02,-1.084216e+02,2.041597e+02,-32.0773
1.069019e+00,6.716846e+00,1.610398e+02,-9.647300e+01,1.877255e+02,-30.9243
1.350314e+00,8.484273e+00,1.504056e+02,-8.584223e+01,1.731783e+02,-29.7151
1.705627e+00,1.071677e+01,1.409432e+02,-7.638411e+01,1.603107e+02,-28.4555
2.154435e+00,1.353671e+01,1.325234e+02,-6.796948e+01,1.489372e+02,-27.1527
2.721339e+00,1.709868e+01,1.250312e+02,-6.048342e+01,1.388922e+02,-25.8152
3.437414e+00,2.159791e+01,1.183641e+02,-5.382371e+01,1.300272e+02,-24.4527
4.341913e+00,2.728105e+01,1.124312e+02,-4.789941e+01,1.222094e+02,-23.0756
5.484417e+00,3.445961e+01,1.071514e+02,-4.262963e+01,1.153200e+02,-21.6949
6.927551e+00,4.352708e+01,1.024525e+02,-3.794245e+01,1.092527e+02,-20.3217
8.750422e+00,5.498052e+01,9.827036e+01,-3.377390e+01,1.039122e+02,-18.9670
1.105295e+01,6.944774e+01,9.454780e+01,-3.006710e+01,9.921349e+01,-17.6412
1.396135e+01,8.772177e+01,9.123397e+01,-2.677152e+01,9.508077e+01,-16.3537
1.763505e+01,1.108043e+02,8.828359e+01,-2.384226e+01,9.144641e+01,-15.1130
2.227543e+01,1.399607e+02,8.565633e+01,-2.123945e+01,8.825033e+01,-13.9263
2.813684e+01,1.767890e+02,8.331628e+01,-1.892771e+01,8.543922e+01,-12.7992
3.554059e+01,2.233081e+02,8.123145e+01,-1.687569e+01,8.296588e+01,-11.7362
4.489251e+01,2.820680e+02,7.937330e+01,-1.505565e+01,8.078857e+01,-10.7404
5.670524e+01,3.562895e+02,7.771641e+01,-1.344307e+01,7.887050e+01,-9.8137
7.162629e+01,4.500413e+02,7.623805e+01,-1.201636e+01,7.717923e+01,-8.9571
9.047357e+01,5.684622e+02,7.491792e+01,-1.075657e+01,7.568619e+01,-8.1706
1.142802e+02,7.180437e+02,7.373784e+01,-9.647150e+00,7.436624e+01,-7.4537
1.443512e+02,9.069851e+02,7.268147e+01,-8.673771e+00,7.319720e+01,-6.8055
1.823348e+02,1.145643e+03,7.173406e+01,-7.824133e+00,7.215950e+01,-6.2247
2.303132e+02,1.447101e+03,7.088224e+01,-7.087844e+00,7.123573e+01,-5.7103
2.909163e+02,1.827881e+03,7.011375e+01,-6.456311e+00,7.041038e+01,-5.2612
3.674662e+02,2.308858e+03,6.941719e+01,-5.922657e+00,6.966939e+01,-4.8767
4.641589e+02,2.916396e+03,6.878180e+01,-5.481657e+00,6.899988e+01,-4.5566
5.862947e+02,3.683798e+03,6.819708e+01,-5.129670e+00,6.838973e+01,-4.3016
7.405685e+02,4.653129e+03,6.765248e+01,-4.864567e+00,6.782715e+01,-4.1128
9.354369e+02,5.877523e+03,6.713693e+01,-4.685597e+00,6.730024e+01,-3.9923
1.181582e+03,7.424097e+03,6.663827e+01,-4.593150e+00,6.679638e+01,-3.9430
1.492496e+03,9.377626e+03,6.614260e+01,-4.588319e+00,6.630156e+01,-3.9683
1.885221e+03,1.184519e+04,6.563347e+01,-4.672116e+00,6.579955e+01,-4.0717
2.381286e+03,1.496206e+04,6.509108e+01,-4.844151e+00,6.527109e+01,-4.2562
3.007883e+03,1.889908e+04,6.449184e+01,-5.100540e+00,6.469322e+01,-4.5220
3.799357e+03,2.387207e+04,6.380852e+01,-5.430875e+00,6.403922e+01,-4.8648
4.799096e+03,3.015361e+04,6.301224e+01,-5.814390e+00,6.327993e+01,-5.2720
6.061899e+03,3.808803e+04,6.207708e+01,-6.216206e+00,6.238754e+01,-5.7184
7.656988e+03,4.811028e+04,6.098822e+01,-6.585732e+00,6.134276e+01,-6.1631
9.671799e+03,6.076970e+04,5.975234e+01,-6.860424e+00,6.014488e+01,-6.5497
1.221677e+04,7.676025e+04,5.840627e+01,-6.977430e+00,5.882156e+01,-6.8125
1.543142e+04,9.695845e+04,5.701702e+01,-6.891553e+00,5.743199e+01,-6.8918
1.949194e+04,1.224715e+05,5.566889e+01,-6.591745e+00,5.605780e+01,-6.7529
2.462092e+04,1.546978e+05,5.444140e+01,-6.106084e+00,5.478276e+01,-6.3995
3.109952e+04,1.954040e+05,5.338910e+01,-5.491484e+00,5.367078e+01,-5.8727
3.928284e+04,2.468214e+05,5.253326e+01,-4.814570e+00,5.275342e+01,-5.2364
4.961948e+04,3.117684e+05,5.186634e+01,-4.134355e+00,5.203085e+01,-4.5575
6.267603e+04,3.938051e+05,5.136322e+01,-3.493113e+00,5.148186e+01,-3.8906
7.916819e+04,4.974284e+05,5.099224e+01,-2.915294e+00,5.107551e+01,-3.2721
1.000000e+05,6.283185e+05,5.072265e+01,-2.411003e+00,5.077992e+01,-2.7214
