f_Hz,omega_rad_s,Z_real_Ohm,Z_imag_Ohm,Z_mag_Ohm,Z_phase_deg
1.000000e-02,6.283185e-02,3.218671e+03,-3.154122e+03,4.506477e+03,-44.4197
1.263134e-02,7.936502e-02,2.870978e+03,-2.806425e+03,4.014790e+03,-44.3486
1.595506e-02,1.002486e-01,2.561614e+03,-2.497056e+03,3.577311e+03,-44.2688
2.015338e-02,1.266274e-01,2.286352e+03,-2.221790e+03,3.188065e+03,-44.1795
2.545641e-02,1.599473e-01,2.041434e+03,-1.976869e+03,2.841736e+03,-44.0795
3.215484e-02,2.020348e-01,1.823515e+03,-1.758946e+03,2.533594e+03,-43.9674
4.061586e-02,2.551970e-01,1.629619e+03,-1.565046e+03,2.259431e+03,-43.8421
5.130326e-02,3.223479e-01,1.457098e+03,-1.392521e+03,2.015502e+03,-43.7018
6.480286e-02,4.071684e-01,1.303594e+03,-1.239015e+03,1.798476e+03,-43.5451
8.185467e-02,5.143081e-01,1.167013e+03,-1.102430e+03,1.605388e+03,-43.3699
1.033934e-01,6.496398e-01,1.045487e+03,-9.809014e+02,1.433601e+03,-43.1745
1.305997e-01,8.205818e-01,9.373587e+02,-8.727698e+02,1.280769e+03,-42.9564
1.649648e-01,1.036504e+00,8.411500e+02,-7.765582e+02,1.144804e+03,-42.7135
2.083726e-01,1.309244e+00,7.555471e+02,-6.909526e+02,1.023849e+03,-42.4431
2.632024e-01,1.653749e+00,6.793809e+02,-6.147839e+02,9.162519e+02,-42.1425
3.324598e-01,2.088906e+00,6.116111e+02,-5.470118e+02,8.205425e+02,-41.8088
4.199411e-01,2.638568e+00,5.513121e+02,-4.867107e+02,7.354130e+02,-41.4388
5.304417e-01,3.332864e+00,4.976605e+02,-4.330570e+02,6.597001e+02,-41.0293
6.700188e-01,4.209852e+00,4.499232e+02,-3.853180e+02,5.923689e+02,-40.5770
8.463232e-01,5.317605e+00,4.074485e+02,-3.428417e+02,5.324985e+02,-40.0784
1.069019e+00,6.716846e+00,3.696561e+02,-3.050479e+02,4.792702e+02,-39.5302
1.350314e+00,8.484273e+00,3.360299e+02,-2.714206e+02,4.319551e+02,-38.9288
1.705627e+00,1.071677e+01,3.061106e+02,-2.415004e+02,3.899052e+02,-38.2710
2.154435e+00,1.353671e+01,2.794894e+02,-2.148787e+02,3.525439e+02,-37.5540
2.721339e+00,1.709868e+01,2.558029e+02,-1.911919e+02,3.193579e+02,-36.7751
3.437414e+00,2.159791e+01,2.347275e+02,-1.701165e+02,2.898907e+02,-35.9324
4.341913e+00,2.728105e+01,2.159752e+02,-1.513647e+02,2.637358e+02,-35.0244
5.484417e+00,3.445961e+01,1.992901e+02,-1.346804e+02,2.405314e+02,-34.0509
6.927551e+00,4.352708e+01,1.844440e+02,-1.198357e+02,2.199550e+02,-33.0123
8.750422e+00,5.498052e+01,1.712344e+02,-1.066279e+02,2.017195e+02,-31.9106
1.105295e+01,6.944774e+01,1.594807e+02,-9.487658e+01,1.855685e+02,-30.7488
1.396135e+01,8.772177e+01,1.490224e+02,-8.442122e+01,1.712735e+02,-29.5316
1.763505e+01,1.108043e+02,1.397166e+02,-7.511907e+01,1.586304e+02,-28.2648
2.227543e+01,1.399607e+02,1.314362e+02,-6.684308e+01,1.474566e+02,-26.9560
2.813684e+01,1.767890e+02,1.240680e+02,-5.948022e+01,1.375891e+02,-25.6138
3.554059e+01,2.233081e+02,1.175115e+02,-5.292997e+01,1.288819e+02,-24.2479
4.489251e+01,2.820680e+02,1.116771e+02,-4.710286e+01,1.212042e+02,-22.8689
5.670524e+01,3.562895e+02,1.064850e+02,-4.191935e+01,1.144390e+02,-21.4878
7.162629e+01,4.500413e+02,1.018644e+02,-3.730868e+01,1.084817e+02,-20.1157
9.047357e+01,5.684622e+02,9.775202e+01,-3.320791e+01,1.032387e+02,-18.7634
1.142802e+02,7.180437e+02,9.409179e+01,-2.956110e+01,9.862618e+01,-17.4413
1.443512e+02,9.069851e+02,9.083367e+01,-2.631851e+01,9.456965e+01,-16.1586
1.823348e+02,1.145643e+03,8.793314e+01,-2.343596e+01,9.100264e+01,-14.9236
2.303132e+02,1.447101e+03,8.535056e+01,-2.087419e+01,8.786609e+01,-13.7431
2.909163e+02,1.827881e+03,8.305063e+01,-1.859837e+01,8.510762e+01,-12.6226
3.674662e+02,2.308858e+03,8.100192e+01,-1.657762e+01,8.268088e+01,-11.5663
4.641589e+02,2.916396e+03,7.917641e+01,-1.478457e+01,8.054494e+01,-10.5770
5.862947e+02,3.683798e+03,7.754910e+01,-1.319503e+01,7.866367e+01,-9.6564
7.405685e+02,4.653129e+03,7.609773e+01,-1.178769e+01,7.700528e+01,-8.8053
9.354369e+02,5.877523e+03,7.480236e+01,-1.054379e+01,7.554181e+01,-8.0233
1.181582e+03,7.424097e+03,7.364519e+01,-9.446915e+00,7.424862e+01,-7.3098
1.492496e+03,9.377626e+03,7.261023e+01,-8.482813e+00,7.310406e+01,-6.6635
1.885221e+03,1.184519e+04,7.168311e+01,-7.639199e+00,7.208901e+01,-6.0830
2.381286e+03,1.496206e+04,7.085082e+01,-6.905629e+00,7.118656e+01,-5.5669
3.007883e+03,1.889908e+04,7.010152e+01,-6.273399e+00,7.038166e+01,-5.1138
3.799357e+03,2.387207e+04,6.942426e+01,-5.735454e+00,6.966078e+01,-4.7227
4.799096e+03,3.015361e+04,6.880883e+01,-5.286337e+00,6.901159e+01,-4.3932
6.061899e+03,3.808803e+04,6.824540e+01,-4.922134e+00,6.842267e+01,-4.1253
7.656988e+03,4.811028e+04,6.772429e+01,-4.640430e+00,6.788309e+01,-3.9197
9.671799e+03,6.076970e+04,6.723553e+01,-4.440237e+00,6.738199e+01,-3.7783
1.221677e+04,7.676025e+04,6.676842e+01,-4.321857e+00,6.690815e+01,-3.7035
1.543142e+04,9.695845e+04,6.631090e+01,-4.286617e+00,6.644931e+01,-3.6987
1.949194e+04,1.224715e+05,6.584887e+01,-4.336363e+00,6.599150e+01,-3.7677
2.462092e+04,1.546978e+05,6.536535e+01,-4.472562e+00,6.551819e+01,-3.9143
3.109952e+04,1.954040e+05,6.483969e+01,-4.694785e+00,6.500943e+01,-4.1413
3.928284e+04,2.468214e+05,6.424717e+01,-4.998338e+00,6.444131e+01,-4.4486
4.961948e+04,3.117684e+05,6.355956e+01,-5.370908e+00,6.378609e+01,-4.8301
6.267603e+04,3.938051e+05,6.274769e+01,-5.788490e+00,6.301412e+01,-5.2706
7.916819e+04,4.974284e+05,6.178708e+01,-6.211803e+00,6.209855e+01,-5.7410
1.000000e+05,6.283185e+05,6.066714e+01,-6.585687e+00,6.102354e+01,-6.1955
