f_Hz,omega_rad_s,Z_real_Ohm,Z_imag_Ohm,Z_mag_Ohm,Z_phase_deg
1.000000e-02,6.283185e-02,1.624658e+02,-1.108253e+02,1.966657e+02,-34.2997
1.263134e-02,7.936502e-02,1.502490e+02,-9.860849e+01,1.797175e+02,-33.2769
1.595506e-02,1.002486e-01,1.393789e+02,-8.773837e+01,1.646951e+02,-32.1902
2.015338e-02,1.266274e-01,1.297071e+02,-7.806651e+01,1.513879e+02,-31.0424
2.545641e-02,1.599473e-01,1.211014e+02,-6.946083e+01,1.396079e+02,-29.8375
3.215484e-02,2.020348e-01,1.134444e+02,-6.180380e+01,1.291873e+02,-28.5813
4.061586e-02,2.551970e-01,1.066315e+02,-5.499084e+01,1.199761e+02,-27.2806
5.130326e-02,3.223479e-01,1.005696e+02,-4.892891e+01,1.118404e+02,-25.9438
6.480286e-02,4.071684e-01,9.517594e+01,-4.353522e+01,1.046603e+02,-24.5802
8.185467e-02,5.143081e-01,9.037685e+01,-3.873611e+01,9.832833e+01,-23.2003
1.033934e-01,6.496398e-01,8.610679e+01,-3.446603e+01,9.274851e+01,-21.8148
1.305997e-01,8.205818e-01,8.230744e+01,-3.066666e+01,8.783484e+01,-20.4347
1.649648e-01,1.036504e+00,7.892691e+01,-2.728612e+01,8.351042e+01,-19.0710
2.083726e-01,1.309244e+00,7.591904e+01,-2.427824e+01,7.970654e+01,-17.7338
2.632024e-01,1.653749e+00,7.324274e+01,-2.160194e+01,7.636192e+01,-16.4327
3.324598e-01,2.088906e+00,7.086146e+01,-1.922066e+01,7.342193e+01,-15.1759
4.199411e-01,2.638568e+00,6.874268e+01,-1.710188e+01,7.083806e+01,-13.9705
5.304417e-01,3.332864e+00,6.685746e+01,-1.521668e+01,6.856725e+01,-12.8220
6.700188e-01,4.209852e+00,6.518006e+01,-1.353930e+01,6.657141e+01,-11.7347
8.463232e-01,5.317605e+00,6.368756e+01,-1.204683e+01,6.481691e+01,-10.7112
1.069019e+00,6.716846e+00,6.235959e+01,-1.071889e+01,6.327411e+01,-9.7532
1.350314e+00,8.484273e+00,6.117800e+01,-9.537339e+00,6.191695e+01,-8.8608
1.705627e+00,1.071677e+01,6.012666e+01,-8.486050e+00,6.072255e+01,-8.0335
2.154435e+00,1.353671e+01,5.919120e+01,-7.550661e+00,5.967086e+01,-7.2696
2.721339e+00,1.709868e+01,5.835886e+01,-6.718396e+00,5.874431e+01,-6.5671
3.437414e+00,2.159791e+01,5.761826e+01,-5.977890e+00,5.792754e+01,-5.9232
4.341913e+00,2.728105e+01,5.695930e+01,-5.319030e+00,5.720711e+01,-5.3350
5.484417e+00,3.445961e+01,5.637296e+01,-4.732818e+00,5.657128e+01,-4.7990
6.927551e+00,4.352708e+01,5.585124e+01,-4.211247e+00,5.600978e+01,-4.3120
8.750422e+00,5.498052e+01,5.538702e+01,-3.747196e+00,5.551363e+01,-3.8704
1.105295e+01,6.944774e+01,5.497396e+01,-3.334328e+00,5.507498e+01,-3.4709
1.396135e+01,8.772177e+01,5.460641e+01,-2.967006e+00,5.468695e+01,-3.1101
1.763505e+01,1.108043e+02,5.427935e+01,-2.640213e+00,5.434352e+01,-2.7847
2.227543e+01,1.399607e+02,5.398832e+01,-2.349489e+00,5.403942e+01,-2.4919
2.813684e+01,1.767890e+02,5.372934e+01,-2.090866e+00,5.377001e+01,-2.2285
3.554059e+01,2.233081e+02,5.349888e+01,-1.860814e+00,5.353123e+01,-1.9921
4.489251e+01,2.820680e+02,5.329378e+01,-1.656196e+00,5.331951e+01,-1.7800
5.670524e+01,3.562895e+02,5.311126e+01,-1.474221e+00,5.313171e+01,-1.5900
7.162629e+01,4.500413e+02,5.294880e+01,-1.312411e+00,5.296506e+01,-1.4199
9.047357e+01,5.684622e+02,5.280419e+01,-1.168562e+00,5.281712e+01,-1.2678
1.142802e+02,7.180437e+02,5.267547e+01,-1.040720e+00,5.268575e+01,-1.1319
1.443512e+02,9.069851e+02,5.256086e+01,-9.271500e-01,5.256903e+01,-1.0106
1.823348e+02,1.145643e+03,5.245880e+01,-8.263157e-01,5.246531e+01,-0.9024
2.303132e+02,1.447101e+03,5.236790e+01,-7.368582e-01,5.237308e+01,-0.8061
2.909163e+02,1.827881e+03,5.228691e+01,-6.575781e-01,5.229104e+01,-0.7205
3.674662e+02,2.308858e+03,5.221471e+01,-5.874209e-01,5.221802e+01,-0.6446
4.641589e+02,2.916396e+03,5.215033e+01,-5.254632e-01,5.215298e+01,-0.5773
5.862947e+02,3.683798e+03,5.209288e+01,-4.709020e-01,5.209501e+01,-0.5179
7.405685e+02,4.653129e+03,5.204156e+01,-4.230456e-01,5.204327e+01,-0.4657
9.354369e+02,5.877523e+03,5.199565e+01,-3.813066e-01,5.199705e+01,-0.4202
1.181582e+03,7.424097e+03,5.195451e+01,-3.451966e-01,5.195566e+01,-0.3807
1.492496e+03,9.377626e+03,5.191757e+01,-3.143228e-01,5.191852e+01,-0.3469
1.885221e+03,1.184519e+04,5.188428e+01,-2.883871e-01,5.188508e+01,-0.3185
2.381286e+03,1.496206e+04,5.185413e+01,-2.671863e-01,5.185482e+01,-0.2952
3.007883e+03,1.889908e+04,5.182667e+01,-2.506151e-01,5.182727e+01,-0.2771
3.799357e+03,2.387207e+04,5.180141e+01,-2.386700e-01,5.180196e+01,-0.2640
4.799096e+03,3.015361e+04,5.177788e+01,-2.314558e-01,5.177840e+01,-0.2561
6.061899e+03,3.808803e+04,5.175559e+01,-2.291916e-01,5.175610e+01,-0.2537
7.656988e+03,4.811028e+04,5.173395e+01,-2.322169e-01,5.173447e+01,-0.2572
9.671799e+03,6.076970e+04,5.171229e+01,-2.409928e-01,5.171285e+01,-0.2670
1.221677e+04,7.676025e+04,5.168976e+01,-2.560944e-01,5.169040e+01,-0.2839
1.543142e+04,9.695845e+04,5.166529e+01,-2.781834e-01,5.166604e+01,-0.3085
1.949194e+04,1.224715e+05,5.163745e+01,-3.079464e-01,5.163837e+01,-0.3417
2.462092e+04,1.546978e+05,5.160438e+01,-3.459729e-01,5.160554e+01,-0.3841
3.109952e+04,1.954040e+05,5.156364e+01,-3.925422e-01,5.156513e+01,-0.4362
3.928284e+04,2.468214e+05,5.151221e+01,-4.472821e-01,5.151415e+01,-0.4975
4.961948e+04,3.117684e+05,5.144656e+01,-5.086859e-01,5.144908e+01,-0.5665
6.267603e+04,3.938051e+05,5.136313e+01,-5.735479e-01,5.136633e+01,-0.6398
7.916819e+04,4.974284e+05,5.125915e+01,-6.365322e-01,5.126310e+01,-0.7115
1.000000e+05,6.283185e+05,5.113407e+01,-6.902852e-01,5.113873e+01,-0.7734
