f_Hz,omega_rad_s,Z_real_Ohm,Z_imag_Ohm,Z_mag_Ohm,Z_phase_deg
1.000000e-02,6.283185e-02,1.174658e+03,-1.108253e+03,1.614945e+03,-43.3339
1.263134e-02,7.936502e-02,1.052490e+03,-9.860849e+02,1.442254e+03,-43.1343
1.595506e-02,1.002486e-01,9.437888e+02,-8.773837e+02,1.288619e+03,-42.9118
2.015338e-02,1.266274e-01,8.470706e+02,-7.806651e+02,1.151940e+03,-42.6638
2.545641e-02,1.599473e-01,7.610142e+02,-6.946083e+02,1.030351e+03,-42.3880
3.215484e-02,2.020348e-01,6.844442e+02,-6.180380e+02,9.221903e+02,-42.0813
4.061586e-02,2.551970e-01,6.163150e+02,-5.499084e+02,8.259803e+02,-41.7410
5.130326e-02,3.223479e-01,5.556960e+02,-4.892891e+02,7.404066e+02,-41.3638
6.480286e-02,4.071684e-01,5.017594e+02,-4.353522e+02,6.642997e+02,-40.9466
8.185467e-02,5.143081e-01,4.537685e+02,-3.873611e+02,5.966192e+02,-40.4858
1.033934e-01,6.496398e-01,4.110679e+02,-3.446603e+02,5.364397e+02,-39.9782
1.305997e-01,8.205818e-01,3.730744e+02,-3.066666e+02,4.829378e+02,-39.4202
1.649648e-01,1.036504e+00,3.392691e+02,-2.728612e+02,4.353812e+02,-38.8084
2.083726e-01,1.309244e+00,3.091904e+02,-2.427824e+02,3.931183e+02,-38.1397
2.632024e-01,1.653749e+00,2.824274e+02,-2.160194e+02,3.555694e+02,-37.4112
3.324598e-01,2.088906e+00,2.586146e+02,-1.922066e+02,3.222187e+02,-36.6203
4.199411e-01,2.638568e+00,2.374268e+02,-1.710188e+02,2.926071e+02,-35.7653
5.304417e-01,3.332864e+00,2.185746e+02,-1.521668e+02,2.663261e+02,-34.8448
6.700188e-01,4.209852e+00,2.018006e+02,-1.353930e+02,2.430118e+02,-33.8586
8.463232e-01,5.317605e+00,1.868756e+02,-1.204683e+02,2.223401e+02,-32.8076
1.069019e+00,6.716846e+00,1.735959e+02,-1.071889e+02,2.040220e+02,-31.6938
1.350314e+00,8.484273e+00,1.617800e+02,-9.537339e+01,1.878000e+02,-30.5204
1.705627e+00,1.071677e+01,1.512666e+02,-8.486050e+01,1.734442e+02,-29.2924
2.154435e+00,1.353671e+01,1.419120e+02,-7.550661e+01,1.607491e+02,-28.0159
2.721339e+00,1.709868e+01,1.335886e+02,-6.718396e+01,1.495313e+02,-26.6986
3.437414e+00,2.159791e+01,1.261826e+02,-5.977890e+01,1.396266e+02,-25.3492
4.341913e+00,2.728105e+01,1.195930e+02,-5.319030e+01,1.308881e+02,-23.9776
5.484417e+00,3.445961e+01,1.137296e+02,-4.732818e+01,1.231843e+02,-22.5945
6.927551e+00,4.352708e+01,1.085124e+02,-4.211247e+01,1.163976e+02,-21.2107
8.750422e+00,5.498052e+01,1.038702e+02,-3.747196e+01,1.104227e+02,-19.8373
1.105295e+01,6.944774e+01,9.973956e+01,-3.334328e+01,1.051654e+02,-18.4850
1.396135e+01,8.772177e+01,9.606406e+01,-2.967006e+01,1.005416e+02,-17.1637
1.763505e+01,1.108043e+02,9.279349e+01,-2.640213e+01,9.647645e+01,-15.8824
2.227543e+01,1.399607e+02,8.988320e+01,-2.349489e+01,9.290317e+01,-14.6490
2.813684e+01,1.767890e+02,8.729342e+01,-2.090866e+01,8.976254e+01,-13.4698
3.554059e+01,2.233081e+02,8.498880e+01,-1.860814e+01,8.700206e+01,-12.3499
4.489251e+01,2.820680e+02,8.293785e+01,-1.656196e+01,8.457532e+01,-11.2929
5.670524e+01,3.562895e+02,8.111256e+01,-1.474221e+01,8.244137e+01,-10.3011
7.162629e+01,4.500413e+02,7.948798e+01,-1.312411e+01,8.056415e+01,-9.3754
9.047357e+01,5.684622e+02,7.804194e+01,-1.168562e+01,7.891197e+01,-8.5159
1.142802e+02,7.180437e+02,7.675467e+01,-1.040720e+01,7.745701e+01,-7.7217
1.443512e+02,9.069851e+02,7.560858e+01,-9.271500e+00,7.617492e+01,-6.9910
1.823348e+02,1.145643e+03,7.458800e+01,-8.263157e+00,7.504431e+01,-6.3217
2.303132e+02,1.447101e+03,7.367897e+01,-7.368582e+00,7.404652e+01,-5.7111
2.909163e+02,1.827881e+03,7.286905e+01,-6.575781e+00,7.316515e+01,-5.1565
3.674662e+02,2.308858e+03,7.214715e+01,-5.874209e+00,7.238589e+01,-4.6547
4.641589e+02,2.916396e+03,7.150335e+01,-5.254632e+00,7.169616e+01,-4.2030
5.862947e+02,3.683798e+03,7.092880e+01,-4.709020e+00,7.108494e+01,-3.7983
7.405685e+02,4.653129e+03,7.041555e+01,-4.230456e+00,7.054252e+01,-3.4381
9.354369e+02,5.877523e+03,6.995648e+01,-3.813066e+00,7.006032e+01,-3.1199
1.181582e+03,7.424097e+03,6.954515e+01,-3.451966e+00,6.963077e+01,-2.8416
1.492496e+03,9.377626e+03,6.917570e+01,-3.143228e+00,6.924708e+01,-2.6016
1.885221e+03,1.184519e+04,6.884277e+01,-2.883871e+00,6.890315e+01,-2.3988
2.381286e+03,1.496206e+04,6.854135e+01,-2.671863e+00,6.859340e+01,-2.2324
3.007883e+03,1.889908e+04,6.826667e+01,-2.506151e+00,6.831266e+01,-2.1025
3.799357e+03,2.387207e+04,6.801409e+01,-2.386700e+00,6.805595e+01,-2.0098
4.799096e+03,3.015361e+04,6.777885e+01,-2.314558e+00,6.781836e+01,-1.9558
6.061899e+03,3.808803e+04,6.755588e+01,-2.291916e+00,6.759475e+01,-1.9431
7.656988e+03,4.811028e+04,6.733947e+01,-2.322169e+00,6.737950e+01,-1.9750
9.671799e+03,6.076970e+04,6.712286e+01,-2.409928e+00,6.716611e+01,-2.0562
1.221677e+04,7.676025e+04,6.689762e+01,-2.560944e+00,6.694662e+01,-2.1923
1.543142e+04,9.695845e+04,6.665291e+01,-2.781834e+00,6.671094e+01,-2.3899
1.949194e+04,1.224715e+05,6.637454e+01,-3.079464e+00,6.644594e+01,-2.6563
2.462092e+04,1.546978e+05,6.604379e+01,-3.459729e+00,6.613434e+01,-2.9987
3.109952e+04,1.954040e+05,6.563639e+01,-3.925422e+00,6.575367e+01,-3.4225
3.928284e+04,2.468214e+05,6.512207e+01,-4.472821e+00,6.527549e+01,-3.9291
4.961948e+04,3.117684e+05,6.446563e+01,-5.086859e+00,6.466602e+01,-4.5118
6.267603e+04,3.938051e+05,6.363128e+01,-5.735479e+00,6.388924e+01,-5.1505
7.916819e+04,4.974284e+05,6.259151e+01,-6.365322e+00,6.291434e+01,-5.8068
1.000000e+05,6.283185e+05,6.134071e+01,-6.902852e+00,6.172788e+01,-6.4207
