f_Hz,omega_rad_s,Z_real_Ohm,Z_imag_Ohm,Z_mag_Ohm,Z_phase_deg
1.000000e-02,6.283185e-02,2.525794e+03,-9.980527e+02,2.715832e+03,-21.5612
1.263134e-02,7.936502e-02,2.415791e+03,-8.882103e+02,2.573901e+03,-20.1869
1.595506e-02,1.002486e-01,2.317902e+03,-7.905094e+02,2.448994e+03,-18.8317
2.015338e-02,1.266274e-01,2.230788e+03,-7.036185e+02,2.339123e+03,-17.5059
2.545641e-02,1.599473e-01,2.153261e+03,-6.263543e+02,2.242510e+03,-16.2190
3.215484e-02,2.020348e-01,2.084260e+03,-5.576660e+02,2.157576e+03,-14.9792
4.061586e-02,2.551970e-01,2.022844e+03,-4.966206e+02,2.082914e+03,-13.7937
5.130326e-02,3.223479e-01,1.968172e+03,-4.423912e+02,2.017279e+03,-12.6680
6.480286e-02,4.071684e-01,1.919498e+03,-3.942454e+02,1.959567e+03,-11.6066
8.185467e-02,5.143081e-01,1.876154e+03,-3.515358e+02,1.908804e+03,-10.6125
1.033934e-01,6.496398e-01,1.837549e+03,-3.136920e+02,1.864132e+03,-9.6877
1.305997e-01,8.205818e-01,1.803151e+03,-2.802128e+02,1.824794e+03,-8.8332
1.649648e-01,1.036504e+00,1.772490e+03,-2.506608e+02,1.790126e+03,-8.0492
2.083726e-01,1.309244e+00,1.745143e+03,-2.246567e+02,1.759543e+03,-7.3355
2.632024e-01,1.653749e+00,1.720731e+03,-2.018754e+02,1.732533e+03,-6.6913
3.324598e-01,2.088906e+00,1.698916e+03,-1.820432e+02,1.708642e+03,-6.1161
4.199411e-01,2.638568e+00,1.679393e+03,-1.649355e+02,1.687473e+03,-5.6091
5.304417e-01,3.332864e+00,1.661883e+03,-1.503758e+02,1.668672e+03,-5.1703
6.700188e-01,4.209852e+00,1.646133e+03,-1.382358e+02,1.651927e+03,-4.8002
8.463232e-01,5.317605e+00,1.631909e+03,-1.284367e+02,1.636956e+03,-4.5001
1.069019e+00,6.716846e+00,1.618991e+03,-1.209516e+02,1.623503e+03,-4.2725
1.350314e+00,8.484273e+00,1.607164e+03,-1.158095e+02,1.611331e+03,-4.1215
1.705627e+00,1.071677e+01,1.596216e+03,-1.131005e+02,1.600218e+03,-4.0529
2.154435e+00,1.353671e+01,1.585925e+03,-1.129831e+02,1.589944e+03,-4.0749
2.721339e+00,1.709868e+01,1.576046e+03,-1.156915e+02,1.580287e+03,-4.1983
3.437414e+00,2.159791e+01,1.566299e+03,-1.215451e+02,1.571008e+03,-4.4373
4.341913e+00,2.728105e+01,1.556339e+03,-1.309574e+02,1.561839e+03,-4.8098
5.484417e+00,3.445961e+01,1.545726e+03,-1.444421e+02,1.552460e+03,-5.3386
6.927551e+00,4.352708e+01,1.533879e+03,-1.626138e+02,1.542474e+03,-6.0516
8.750422e+00,5.498052e+01,1.520013e+03,-1.861744e+02,1.531372e+03,-6.9829
1.105295e+01,6.944774e+01,1.503054e+03,-2.158745e+02,1.518477e+03,-8.1732
1.396135e+01,8.772177e+01,1.481539e+03,-2.524292e+02,1.502890e+03,-9.6694
1.763505e+01,1.108043e+02,1.453508e+03,-2.963600e+02,1.483414e+03,-11.5242
2.227543e+01,1.399607e+02,1.416422e+03,-3.477278e+02,1.458481e+03,-13.7932
2.813684e+01,1.767890e+02,1.367186e+03,-4.057283e+02,1.426118e+03,-16.5289
3.554059e+01,2.233081e+02,1.302409e+03,-4.681698e+02,1.383999e+03,-19.7717
4.489251e+01,2.820680e+02,1.219056e+03,-5.309664e+02,1.329670e+03,-23.5358
5.670524e+01,3.562895e+02,1.115583e+03,-5.879723e+02,1.261046e+03,-27.7916
7.162629e+01,4.500413e+02,9.933538e+02,-6.316247e+02,1.177158e+03,-32.4503
9.047357e+01,5.684622e+02,8.576194e+02,-6.546835e+02,1.078945e+03,-37.3571
1.142802e+02,7.180437e+02,7.171497e+02,-6.526424e+02,9.696627e+02,-42.3038
1.443512e+02,9.069851e+02,5.821430e+02,-6.255433e+02,8.545144e+02,-47.0581
1.823348e+02,1.145643e+03,4.613329e+02,-5.779706e+02,7.395120e+02,-51.4033
2.303132e+02,1.447101e+03,3.599020e+02,-5.172211e+02,6.301167e+02,-55.1683
2.909163e+02,1.827881e+03,2.791197e+02,-4.508775e+02,5.302814e+02,-58.2401
3.674662e+02,2.308858e+03,2.173501e+02,-3.850622e+02,4.421696e+02,-60.5572
4.641589e+02,2.916396e+03,1.714812e+02,-3.237993e+02,3.664038e+02,-62.0947
5.862947e+02,3.683798e+03,1.380733e+02,-2.691944e+02,3.025390e+02,-62.8461
7.405685e+02,4.653129e+03,1.140150e+02,-2.219542e+02,2.495257e+02,-62.8110
9.354369e+02,5.877523e+03,9.677595e+01,-1.819188e+02,2.060583e+02,-61.9882
1.181582e+03,7.424097e+03,8.442569e+01,-1.484704e+02,1.707957e+02,-60.3759
1.492496e+03,9.377626e+03,7.554772e+01,-1.208016e+02,1.424797e+02,-57.9787
1.885221e+03,1.184519e+04,6.912753e+01,-9.807227e+01,1.199866e+02,-54.8214
2.381286e+03,1.496206e+04,6.444854e+01,-7.949203e+01,1.023357e+02,-50.9664
3.007883e+03,1.889908e+04,6.100814e+01,-6.435632e+01,8.867767e+01,-46.5299
3.799357e+03,2.387207e+04,5.845452e+01,-5.205738e+01,7.827453e+01,-41.6870
4.799096e+03,3.015361e+04,5.654096e+01,-4.208163e+01,7.048222e+01,-36.6591
6.061899e+03,3.808803e+04,5.509367e+01,-3.400098e+01,6.474086e+01,-31.6808
7.656988e+03,4.811028e+04,5.398941e+01,-2.746186e+01,6.057235e+01,-26.9603
9.671799e+03,6.076970e+04,5.314006e+01,-2.217407e+01,5.758085e+01,-22.6496
1.221677e+04,7.676025e+04,5.248201e+01,-1.790053e+01,5.545079e+01,-18.8334
1.543142e+04,9.695845e+04,5.196889e+01,-1.444817e+01,5.393992e+01,-15.5368
1.949194e+04,1.224715e+05,5.156654e+01,-1.166009e+01,5.286838e+01,-12.7413
2.462092e+04,1.546978e+05,5.124952e+01,-9.409051e+00,5.210608e+01,-10.4032
3.109952e+04,1.954040e+05,5.099871e+01,-7.591961e+00,5.156071e+01,-8.4672
3.928284e+04,2.468214e+05,5.079961e+01,-6.125391e+00,5.116757e+01,-6.8755
4.961948e+04,3.117684e+05,5.064109e+01,-4.941868e+00,5.088164e+01,-5.5736
6.267603e+04,3.938051e+05,5.051458e+01,-3.986856e+00,5.067167e+01,-4.5127
7.916819e+04,4.974284e+05,5.041342e+01,-3.216293e+00,5.051591e+01,-3.6504
1.000000e+05,6.283185e+05,5.033240e+01,-2.594592e+00,5.039923e+01,-2.9509
