f_Hz,omega_rad_s,Z_real_Ohm,Z_imag_Ohm,Z_mag_Ohm,Z_phase_deg
1.000000e-02,6.283185e-02,3.570712e+03,-3.504576e+03,5.003203e+03,-44.4644
1.263134e-02,7.936502e-02,3.184387e+03,-3.118246e+03,4.456880e+03,-44.3987
1.595506e-02,1.002486e-01,2.840649e+03,-2.774503e+03,3.970787e+03,-44.3251
2.015338e-02,1.266274e-01,2.534803e+03,-2.468652e+03,3.538286e+03,-44.2425
2.545641e-02,1.599473e-01,2.262673e+03,-2.196517e+03,3.153471e+03,-44.1500
3.215484e-02,2.020348e-01,2.020542e+03,-1.954381e+03,2.811084e+03,-44.0464
4.061586e-02,2.551970e-01,1.805102e+03,-1.738937e+03,2.506451e+03,-43.9304
5.130326e-02,3.223479e-01,1.613412e+03,-1.547242e+03,2.235410e+03,-43.8007
6.480286e-02,4.071684e-01,1.442853e+03,-1.376679e+03,1.994259e+03,-43.6555
8.185467e-02,5.143081e-01,1.291096e+03,-1.224919e+03,1.779706e+03,-43.4933
1.033934e-01,6.496398e-01,1.156068e+03,-1.089887e+03,1.588820e+03,-43.3122
1.305997e-01,8.205818e-01,1.035926e+03,-9.697411e+02,1.418993e+03,-43.1100
1.649648e-01,1.036504e+00,9.290279e+02,-8.628395e+02,1.267906e+03,-42.8846
2.083726e-01,1.309244e+00,8.339140e+02,-7.677223e+02,1.133495e+03,-42.6335
2.632024e-01,1.653749e+00,7.492853e+02,-6.830905e+02,1.013924e+03,-42.3541
3.324598e-01,2.088906e+00,6.739860e+02,-6.077883e+02,9.075592e+02,-42.0436
4.199411e-01,2.638568e+00,6.069876e+02,-5.407871e+02,8.129481e+02,-41.6990
5.304417e-01,3.332864e+00,5.473750e+02,-4.811720e+02,7.287976e+02,-41.3172
6.700188e-01,4.209852e+00,4.943340e+02,-4.281288e+02,6.539575e+02,-40.8949
8.463232e-01,5.317605e+00,4.471402e+02,-3.809331e+02,5.874047e+02,-40.4287
1.069019e+00,6.716846e+00,4.051489e+02,-3.389402e+02,5.282292e+02,-39.9152
1.350314e+00,8.484273e+00,3.677868e+02,-3.015766e+02,4.756212e+02,-39.3510
1.705627e+00,1.071677e+01,3.345433e+02,-2.683321e+02,4.288606e+02,-38.7326
2.154435e+00,1.353671e+01,3.049646e+02,-2.387526e+02,3.873063e+02,-38.0569
2.721339e+00,1.709868e+01,2.786464e+02,-2.124342e+02,3.503885e+02,-37.3211
3.437414e+00,2.159791e+01,2.552295e+02,-1.890174e+02,3.175998e+02,-36.5228
4.341913e+00,2.728105e+01,2.343938e+02,-1.681823e+02,2.884887e+02,-35.6602
5.484417e+00,3.445961e+01,2.158549e+02,-1.496444e+02,2.626534e+02,-34.7322
6.927551e+00,4.352708e+01,1.993595e+02,-1.331506e+02,2.397358e+02,-33.7386
8.750422e+00,5.498052e+01,1.846822e+02,-1.184755e+02,2.194173e+02,-32.6806
1.105295e+01,6.944774e+01,1.716225e+02,-1.054188e+02,2.014136e+02,-31.5602
1.396135e+01,8.772177e+01,1.600022e+02,-9.380211e+01,1.854711e+02,-30.3812
1.763505e+01,1.108043e+02,1.496624e+02,-8.346679e+01,1.713637e+02,-29.1484
2.227543e+01,1.399607e+02,1.404618e+02,-7.427169e+01,1.588893e+02,-27.8684
2.813684e+01,1.767890e+02,1.322749e+02,-6.609125e+01,1.478671e+02,-26.5490
3.554059e+01,2.233081e+02,1.249897e+02,-5.881375e+01,1.381357e+02,-25.1993
4.489251e+01,2.820680e+02,1.185067e+02,-5.233982e+01,1.295504e+02,-23.8292
5.670524e+01,3.562895e+02,1.127374e+02,-4.658108e+01,1.219816e+02,-22.4495
7.162629e+01,4.500413e+02,1.076029e+02,-4.145892e+01,1.153136e+02,-21.0714
9.047357e+01,5.684622e+02,1.030332e+02,-3.690343e+01,1.094427e+02,-19.7060
1.142802e+02,7.180437e+02,9.896566e+01,-3.285247e+01,1.042760e+02,-18.3640
1.443512e+02,9.069851e+02,9.534483e+01,-2.925080e+01,9.973087e+01,-17.0555
1.823348e+02,1.145643e+03,9.212121e+01,-2.604934e+01,9.573341e+01,-15.7894
2.303132e+02,1.447101e+03,8.925073e+01,-2.320452e+01,9.221791e+01,-14.5738
2.909163e+02,1.827881e+03,8.669417e+01,-2.067768e+01,8.912601e+01,-13.4151
3.674662e+02,2.308858e+03,8.441656e+01,-1.843454e+01,8.640594e+01,-12.3186
4.641589e+02,2.916396e+03,8.238675e+01,-1.644475e+01,8.401194e+01,-11.2881
5.862947e+02,3.683798e+03,8.057696e+01,-1.468152e+01,8.190356e+01,-10.3263
7.405685e+02,4.653129e+03,7.896237e+01,-1.312122e+01,8.004513e+01,-9.4347
9.354369e+02,5.877523e+03,7.752083e+01,-1.174311e+01,7.840523e+01,-8.6139
1.181582e+03,7.424097e+03,7.623248e+01,-1.052910e+01,7.695618e+01,-7.8638
1.492496e+03,9.377626e+03,7.507950e+01,-9.463453e+00,7.567356e+01,-7.1840
1.885221e+03,1.184519e+04,7.404582e+01,-8.532702e+00,7.453583e+01,-6.5735
2.381286e+03,1.496206e+04,7.311686e+01,-7.725435e+00,7.352386e+01,-6.0314
3.007883e+03,1.889908e+04,7.227931e+01,-7.032205e+00,7.262059e+01,-5.5569
3.799357e+03,2.387207e+04,7.152080e+01,-6.445435e+00,7.181065e+01,-5.1496
4.799096e+03,3.015361e+04,7.082968e+01,-5.959352e+00,7.107994e+01,-4.8093
6.061899e+03,3.808803e+04,7.019465e+01,-5.569922e+00,7.041529e+01,-4.5369
7.656988e+03,4.811028e+04,6.960440e+01,-5.274782e+00,6.980398e+01,-4.3337
9.671799e+03,6.076970e+04,6.904712e+01,-5.073122e+00,6.923324e+01,-4.2022
1.221677e+04,7.676025e+04,6.850992e+01,-4.965457e+00,6.868963e+01,-4.1454
1.543142e+04,9.695845e+04,6.797810e+01,-4.953218e+00,6.815831e+01,-4.1675
1.949194e+04,1.224715e+05,6.743427e+01,-5.037986e+00,6.762220e+01,-4.2726
2.462092e+04,1.546978e+05,6.685749e+01,-5.220184e+00,6.706098e+01,-4.4646
3.109952e+04,1.954040e+05,6.622256e+01,-5.496968e+00,6.645031e+01,-4.7451
3.928284e+04,2.468214e+05,6.549997e+01,-5.859075e+00,6.576150e+01,-5.1116
4.961948e+04,3.117684e+05,6.465754e+01,-6.286679e+00,6.496245e+01,-5.5534
6.267603e+04,3.938051e+05,6.366477e+01,-6.744973e+00,6.402107e+01,-6.0476
7.916819e+04,4.974284e+05,6.250107e+01,-7.181485e+00,6.291230e+01,-6.5546
1.000000e+05,6.283185e+05,6.116714e+01,-7.528535e+00,6.162871e+01,-7.0168
